
**** 05/01/17 20:05:04 ****** PSpice Lite (October 2012) ****** ID# 10813 ****

 ** Profile: "SCHEMATIC1-bias"  [ c:\orcad\orcad_16.6_lite\tools\capture\project3part2-pspicefiles\schematic1\bias.sim ] 


 ****     CIRCUIT DESCRIPTION


******************************************************************************




** Creating circuit file "bias.cir" 
** WARNING: THIS AUTOMATICALLY GENERATED FILE MAY BE OVERWRITTEN BY SUBSEQUENT SIMULATIONS

*Libraries: 
* Profile Libraries :
* Local Libraries :
* From [PSPICE NETLIST] section of C:\Users\zengk\AppData\Roaming\SPB_16.6\cdssetup\OrCAD_PSpice/16.6.0/PSpice.ini file:
.lib "nomd.lib" 

*Analysis directives: 
.TRAN  0 0.0005  0 0.000001      
.FOUR 10k 5 V([VOUT3]) 
.OPTIONS ADVCONV
.PROBE64 V(alias(*)) I(alias(*)) W(alias(*)) D(alias(*)) NOISE(alias(*)) 
.INC "..\SCHEMATIC1.net" 



**** INCLUDING SCHEMATIC1.net ****
* source PROJECT3PART2
V_V4         N21296 0 10
C_C4         VIN N21274  100uF  TC=0,0 
R_R11         0 N21526  730 TC=0,0 
Q_Q1         N21420 N21274 N21526 Q2N2222
R_R5         N21296 N21274  10000k TC=0,0 
R_R10         N21274 0  7500k TC=0,0 
R_R9         N21420 N21296  10k TC=0,0 
Q_Q2         N35280 VOUT1 N35338 Q2N2222
C_C6         N35280 VOUT2  100uF  TC=0,0 
R_R15         N35286 VOUT1  300k TC=0,0 
C_C7         N21420 VOUT1  100uF  TC=0,0 
R_R14         0 N35338  60 TC=0,0 
R_R13         VOUT1 0  300k TC=0,0 
R_R12         N35280 N35286  1200 TC=0,0 
V_V7         N35286 0 10V
R_R1         VOUT2 N38790  5k TC=0,0 
R_R18         0 N38750  100 TC=0,0 
C_C1         N38750 VOUT3  100uF  TC=0,0 
R_R4         0 VOUT3  16 TC=0,0 
V_V2         N38790 0 10
R_R17         0 VOUT2  20300 TC=0,0 
V_V8         VIN 0  AC 1
+SIN 0 .01 10k 0 0 0
Q_Q3         N38790 VOUT2 N38750 Q2N2222

**** RESUMING bias.cir ****
.END

**** 05/01/17 20:05:04 ****** PSpice Lite (October 2012) ****** ID# 10813 ****

 ** Profile: "SCHEMATIC1-bias"  [ c:\orcad\orcad_16.6_lite\tools\capture\project3part2-pspicefiles\schematic1\bias.sim ] 


 ****     BJT MODEL PARAMETERS


******************************************************************************




               Q2N2222         
               NPN             
       LEVEL    1            
          IS   14.340000E-15 
          BF  255.9          
          NF    1            
         VAF   74.03         
         IKF     .2847       
         ISE   14.340000E-15 
          NE    1.307        
          BR    6.092        
          NR    1            
         ISS    0            
          RB   10            
          RE    0            
          RC    1            
         CJE   22.010000E-12 
         VJE     .75         
         MJE     .377        
         CJC    7.306000E-12 
         VJC     .75         
         MJC     .3416       
        XCJC    1            
         CJS    0            
         VJS     .75         
          TF  411.100000E-12 
         XTF    3            
         VTF    1.7          
         ITF     .6          
          TR   46.910000E-09 
         XTB    1.5          
          KF    0            
          AF    1            
          CN    2.42         
           D     .87         


**** 05/01/17 20:05:04 ****** PSpice Lite (October 2012) ****** ID# 10813 ****

 ** Profile: "SCHEMATIC1-bias"  [ c:\orcad\orcad_16.6_lite\tools\capture\project3part2-pspicefiles\schematic1\bias.sim ] 


 ****     INITIAL TRANSIENT SOLUTION       TEMPERATURE =   27.000 DEG C


******************************************************************************



 NODE   VOLTAGE     NODE   VOLTAGE     NODE   VOLTAGE     NODE   VOLTAGE


(  VIN)    0.0000  (VOUT1)     .9686  (VOUT2)    6.6788  (VOUT3)    0.0000      

(N21274)     .6633 (N21296)   10.0000 (N21420)    8.9365 (N21526)     .0783     

(N35280)    4.3669 (N35286)   10.0000 (N35338)     .2833 (N38750)    5.9207     

(N38790)   10.0000 




    VOLTAGE SOURCE CURRENTS
    NAME         CURRENT

    V_V4        -1.073E-04
    V_V7        -4.724E-03
    V_V2        -5.954E-02
    V_V8         0.000E+00

    TOTAL POWER DISSIPATION   6.44E-01  WATTS


**** 05/01/17 20:05:04 ****** PSpice Lite (October 2012) ****** ID# 10813 ****

 ** Profile: "SCHEMATIC1-bias"  [ c:\orcad\orcad_16.6_lite\tools\capture\project3part2-pspicefiles\schematic1\bias.sim ] 


 ****     FOURIER ANALYSIS                 TEMPERATURE =   27.000 DEG C


******************************************************************************



FOURIER COMPONENTS OF TRANSIENT RESPONSE V(VOUT3)



 DC COMPONENT =  -4.1157E-03

 HARMONIC   FREQUENCY     FOURIER     NORMALIZED     PHASE     NORMALIZED
    NO         (HZ)      COMPONENT     COMPONENT     (DEG)     PHASE (DEG)

     1    1.0000E+04   5.0557E-01   1.0000E+00  -7.8120E-01   0.0000E+00
     2    2.0000E+04   1.1979E-03   2.3693E-03   7.8348E+01   7.9911E+01
     3    3.0000E+04   8.0597E-04   1.5942E-03  -3.6439E-01   1.9792E+00
     4    4.0000E+04   1.9143E-04   3.7865E-04   6.1025E+01   6.4150E+01
     5    5.0000E+04   1.7717E-05   3.5045E-05   1.1261E+02   1.1651E+02


     TOTAL HARMONIC DISTORTION =   2.8809E-01 PERCENT


          JOB CONCLUDED

**** 05/01/17 20:05:04 ****** PSpice Lite (October 2012) ****** ID# 10813 ****

 ** Profile: "SCHEMATIC1-bias"  [ c:\orcad\orcad_16.6_lite\tools\capture\project3part2-pspicefiles\schematic1\bias.sim ] 


 ****     JOB STATISTICS SUMMARY


******************************************************************************



  Total job time (using Solver 1)   =         .05
